Circuit: * D:\Acads\Analog Electronics\Labs\Lab5\Expt5_Diff_mode.asc

Direct Newton iteration for .op point succeeded.
Semiconductor Device Operating Points:
                        --- Diodes ---
Name:    d:u4:3      d:u4:4      d:u4:6      d:u4:5      d:u4:2
Model:    u4:dx       u4:dx       u4:dx       u4:dx       u4:dx
Id:     -1.81e-13   -1.81e-13    7.63e-05    7.61e-05   -1.34e-11
Vd:     -1.80e-01   -1.80e-01    6.48e-01    6.48e-01   -1.34e+01
Req:     1.00e+12    1.00e+12    3.39e+02    3.40e+02    1.00e+12
CAP:     0.00e+00    0.00e+00    0.00e+00    0.00e+00    0.00e+00

Name:    d:u4:1      d:u3:3      d:u3:4      d:u3:6      d:u3:5
Model:    u4:dx       u3:dx       u3:dx       u3:dx       u3:dx
Id:     -1.34e-11   -1.92e-13   -1.70e-13    5.02e-05    1.14e-04
Vd:     -1.34e+01   -1.91e-01   -1.69e-01    6.37e-01    6.59e-01
Req:     1.00e+12    1.00e+12    1.00e+12    5.15e+02    2.26e+02
CAP:     0.00e+00    0.00e+00    0.00e+00    0.00e+00    0.00e+00

Name:    d:u3:2      d:u3:1      d:u2:3      d:u2:4      d:u2:6
Model:    u3:dx       u3:dx       u2:dx       u2:dx       u2:dx
Id:     -1.33e-11   -1.34e-11   -1.68e-13   -1.94e-13    1.19e-04
Vd:     -1.33e+01   -1.34e+01   -1.67e-01   -1.93e-01    6.60e-01
Req:     1.00e+12    1.00e+12    1.00e+12    1.00e+12    2.18e+02
CAP:     0.00e+00    0.00e+00    0.00e+00    0.00e+00    0.00e+00

Name:    d:u2:5      d:u2:2      d:u2:1      d:u1:3      d:u1:4
Model:    u2:dx       u2:dx       u2:dx       u1:dx       u1:dx
Id:      4.82e-05   -1.34e-11   -1.33e-11   -1.82e-13   -1.80e-13
Vd:      6.36e-01   -1.34e+01   -1.33e+01   -1.81e-01   -1.79e-01
Req:     5.36e+02    1.00e+12    1.00e+12    1.00e+12    1.00e+12
CAP:     0.00e+00    0.00e+00    0.00e+00    0.00e+00    0.00e+00

Name:    d:u1:6      d:u1:5      d:u1:2      d:u1:1
Model:    u1:dx       u1:dx       u1:dx       u1:dx
Id:      7.32e-05    7.93e-05   -1.17e-11   -1.50e-11
Vd:      6.47e-01    6.49e-01   -1.17e+01   -1.50e+01
Req:     3.53e+02    3.26e+02    1.00e+12    1.00e+12
CAP:     0.00e+00    0.00e+00    0.00e+00    0.00e+00

                        --- Bipolar Transistors ---
Name:     q:u4:2      q:u4:1      q:u3:2      q:u3:1      q:u2:2
Model:     u4:qx       u4:qx       u3:qx       u3:qx       u2:qx
Ib:       7.99e-08    7.99e-08    7.99e-08    7.99e-08    7.99e-08
Ic:       4.99e-05    4.99e-05    4.99e-05    4.99e-05    4.99e-05
Vbe:      6.97e-01    6.97e-01    6.97e-01    6.97e-01    6.97e-01
Vbc:     -1.50e+01   -1.50e+01   -1.50e+01   -1.50e+01   -1.50e+01
Vce:      1.57e+01    1.57e+01    1.57e+01    1.57e+01    1.57e+01
BetaDC:   6.25e+02    6.25e+02    6.25e+02    6.25e+02    6.25e+02
Gm:       1.93e-03    1.93e-03    1.93e-03    1.93e-03    1.93e-03
Rpi:      3.24e+05    3.24e+05    3.24e+05    3.24e+05    3.24e+05
Rx:       0.00e+00    0.00e+00    0.00e+00    0.00e+00    0.00e+00
Ro:       0.00e+00    0.00e+00    0.00e+00    0.00e+00    0.00e+00
Cbe:      0.00e+00    0.00e+00    0.00e+00    0.00e+00    0.00e+00
Cbc:      0.00e+00    0.00e+00    0.00e+00    0.00e+00    0.00e+00
Cjs:      0.00e+00    0.00e+00    0.00e+00    0.00e+00    0.00e+00
BetaAC:   6.25e+02    6.25e+02    6.25e+02    6.25e+02    6.25e+02
Cbx:      0.00e+00    0.00e+00    0.00e+00    0.00e+00    0.00e+00
Ft:       0.00e+00    0.00e+00    0.00e+00    0.00e+00    0.00e+00

Name:     q:u2:1      q:u1:2      q:u1:1
Model:     u2:qx       u1:qx       u1:qx
Ib:       7.99e-08    7.98e-08    7.99e-08
Ic:       4.99e-05    4.99e-05    4.99e-05
Vbe:      6.97e-01    6.97e-01    6.97e-01
Vbc:     -1.50e+01   -1.50e+01   -1.50e+01
Vce:      1.57e+01    1.57e+01    1.57e+01
BetaDC:   6.25e+02    6.25e+02    6.25e+02
Gm:       1.93e-03    1.93e-03    1.93e-03
Rpi:      3.24e+05    3.24e+05    3.24e+05
Rx:       0.00e+00    0.00e+00    0.00e+00
Ro:       0.00e+00    0.00e+00    0.00e+00
Cbe:      0.00e+00    0.00e+00    0.00e+00
Cbc:      0.00e+00    0.00e+00    0.00e+00
Cjs:      0.00e+00    0.00e+00    0.00e+00
BetaAC:   6.25e+02    6.25e+02    6.25e+02
Cbx:      0.00e+00    0.00e+00    0.00e+00
Ft:       0.00e+00    0.00e+00    0.00e+00



Date: Thu Mar 11 13:36:42 2021
Total elapsed time: 0.228 seconds.

tnom = 27
temp = 27
method = trap
totiter = 11
traniter = 0
tranpoints = 0
accept = 0
rejected = 0
matrix size = 137
fillins = 179
solver = Normal
Matrix Compiler1:     852 opcodes
Matrix Compiler2: 14.74 KB object code size
