Circuit: * D:\Acads\Analog Electronics\Labs\Lab2\Bootstrap Configuration.asc

Direct Newton iteration for .op point succeeded.
Semiconductor Device Operating Points:
                        --- Bipolar Transistors ---
Name:       q1
Model:      npn
Ib:       2.27e-05
Ic:       2.27e-03
Vbe:      7.95e-01
Vbc:     -2.72e-01
Vce:      1.07e+00
BetaDC:   1.00e+02
Gm:       8.77e-02
Rpi:      1.14e+03
Rx:       0.00e+00
Ro:       9.59e+18
Cbe:      0.00e+00
Cbc:      0.00e+00
Cjs:      0.00e+00
BetaAC:   1.00e+02
Cbx:      0.00e+00
Ft:       0.00e+00



Date: Wed Feb 03 23:23:12 2021
Total elapsed time: 0.676 seconds.

tnom = 27
temp = 27
method = trap
totiter = 7
traniter = 0
tranpoints = 0
accept = 0
rejected = 0
matrix size = 9
fillins = 0
solver = Normal
Matrix Compiler1: 412 bytes object code size
Matrix Compiler2: 661 bytes object code size
