Circuit: * D:\Acads\Analog Electronics\Labs\Lab2\Common_Emitter_R1_Value.asc

Direct Newton iteration for .op point succeeded.
Semiconductor Device Operating Points:
                        --- Bipolar Transistors ---
Name:       q1
Model:      npn
Ib:       2.34e-05
Ic:       2.34e-03
Vbe:      7.96e-01
Vbc:     -2.80e-04
Vce:      7.96e-01
BetaDC:   1.00e+02
Gm:       9.03e-02
Rpi:      1.11e+03
Rx:       0.00e+00
Ro:       2.61e+14
Cbe:      0.00e+00
Cbc:      0.00e+00
Cjs:      0.00e+00
BetaAC:   1.00e+02
Cbx:      0.00e+00
Ft:       0.00e+00



Date: Wed Feb 03 20:17:50 2021
Total elapsed time: 0.880 seconds.

tnom = 27
temp = 27
method = trap
totiter = 7
traniter = 0
tranpoints = 0
accept = 0
rejected = 0
matrix size = 8
fillins = 0
solver = Normal
Matrix Compiler1: 282 bytes object code size
Matrix Compiler2: 554 bytes object code size
