Circuit: * D:\Acads\Analog Electronics\Labs\Lab1\Schematic without ce.asc

Direct Newton iteration for .op point succeeded.
Semiconductor Device Operating Points:
                        --- Bipolar Transistors ---
Name:       q1
Model:      npn
Ib:       1.04e-05
Ic:       1.04e-03
Vbe:      7.75e-01
Vbc:     -6.72e+00
Vce:      7.50e+00
BetaDC:   1.00e+02
Gm:       4.03e-02
Rpi:      2.48e+03
Rx:       0.00e+00
Ro:       0.00e+00
Cbe:      0.00e+00
Cbc:      0.00e+00
Cjs:      0.00e+00
BetaAC:   1.00e+02
Cbx:      0.00e+00
Ft:       0.00e+00



Date: Thu Jan 21 11:22:49 2021
Total elapsed time: 0.177 seconds.

tnom = 27
temp = 27
method = trap
totiter = 7
traniter = 0
tranpoints = 0
accept = 0
rejected = 0
matrix size = 9
fillins = 0
solver = Normal
Matrix Compiler1:      23 opcodes
Matrix Compiler2: 667 bytes object code size
