Circuit: * E:\BITS Pilani\3-2\AnE\Labs\simulations\lab 9&10\lab 10\high voltage regulator .asc

Direct Newton iteration failed to find .op point.  (Use ".option noopiter" to skip.)
Starting Gmin stepping
Gmin = 10
Gmin = 1.07374
Gmin = 0.115292
Gmin = 0.0123794
Gmin = 0.00132923
Gmin = 0.000142725
Gmin = 1.5325e-05
Gmin = 1.6455e-06
Gmin = 1.76685e-07
Gmin = 1.89714e-08
Gmin = 2.03704e-09
Gmin = 2.18725e-10
Gmin = 2.34854e-11
Gmin = 2.52173e-12
Gmin = 2.70769e-13
Gmin = 0
Gmin stepping succeeded in finding the operating point.

Semiconductor Device Operating Points:
                        --- Diodes ---
Name:    d:u1:z
Model:    u1:dz
Id:        NaN
Vd:      -5.54e+0
Req:      8.02e+9
CAP:      0.00e+0

                        --- Bipolar Transistors ---
Name:     q:u1:3      q:u1:2      q:u1:1      q:u1:4      q:u1:5
Model:    u1:npn1     u1:npn1     u1:npn1     u1:npn1     u1:npn1
Ib:         NaN        5.14e-5     5.83e-4      NaN        2.08e-5
Ic:         NaN        2.82e-3    -4.86e-4      NaN        1.15e-3
Vbe:       1.70e-1     6.82e-1     6.44e-1    -3.92e-2     6.59e-1
Vbc:      -7.97e+0    -3.59e-3     6.41e-1    -9.21e+0    -7.88e+0
Vce:       8.14e+0     6.86e-1     3.59e-3     9.17e+0     8.53e+0
BetaDC:   -1.98e+0     5.50e+1    -8.34e-1    -9.96e-1     5.50e+1
Gm:         NaN        1.09e-1     3.28e-3      NaN        4.43e-2
Rpi:        NaN        5.04e+2     2.17e+3      NaN        1.24e+3
Rx:        0.00e+0     0.00e+0     0.00e+0     0.00e+0     0.00e+0
Ro:        0.00e+0      NaN        4.53e+1     0.00e+0     0.00e+0
Cbe:       0.00e+0     0.00e+0     0.00e+0     0.00e+0     0.00e+0
Cbc:       0.00e+0     0.00e+0     0.00e+0     0.00e+0     0.00e+0
Cjs:       0.00e+0     0.00e+0     0.00e+0     0.00e+0     0.00e+0
BetaAC:    4.59e+1     5.50e+1     7.12e+0     8.49e-2     5.50e+1
Cbx:       0.00e+0     0.00e+0     0.00e+0     0.00e+0     0.00e+0
Ft:        0.00e+0     0.00e+0     0.00e+0     0.00e+0     0.00e+0



Date: Thu Apr 22 13:32:00 2021
Total elapsed time: 0.085 seconds.

tnom = 27
temp = 27
method = trap
totiter = 443
traniter = 0
tranpoints = 0
accept = 0
rejected = 0
matrix size = 18
fillins = 3
solver = Normal
Matrix Compiler1: 1.15 KB object code size
Matrix Compiler2: 1.55 KB object code size  0.6/0.8/[0.7]

